time	V(out)	I(Bat)
0.000000000000000e+000	2.827272e+001	-6.732165e-004
9.999999717180685e-010	2.827272e+001	-6.731826e-004
1.007860561550467e-009	2.827272e+001	-6.731824e-004
1.023581741215263e-009	2.827272e+001	-6.731820e-004
1.055024100544855e-009	2.827272e+001	-6.731809e-004
1.073038028225621e-009	2.827272e+001	-6.731803e-004
1.098271487929924e-009	2.827272e+001	-6.731795e-004
1.125537434963234e-009	2.827272e+001	-6.731786e-004
1.180069329029854e-009	2.827272e+001	-6.731767e-004
1.275640334683324e-009	2.827272e+001	-6.731735e-004
1.466782345990263e-009	2.827272e+001	-6.731671e-004
1.849066368604141e-009	2.827272e+001	-6.731542e-004
2.613634413831897e-009	2.827272e+001	-6.731285e-004
4.142770504287409e-009	2.827272e+001	-6.730771e-004
7.201042685198435e-009	2.827272e+001	-6.729742e-004
1.331758704702048e-008	2.827272e+001	-6.727687e-004
2.555067577066459e-008	2.827272e+001	-6.723584e-004
4.791998092310231e-008	2.827272e+001	-6.716101e-004
7.088784893674119e-008	2.827272e+001	-6.708443e-004
1.016747991043923e-007	2.827272e+001	-6.698214e-004
1.165839782290584e-007	2.827272e+001	-6.693276e-004
1.238422067380543e-007	2.827272e+001	-6.690876e-004
1.269725047961025e-007	2.827272e+001	-6.689843e-004
1.294300453062870e-007	2.827272e+001	-6.689032e-004
1.318530353115365e-007	2.827272e+001	-6.688232e-004
1.359542669830370e-007	2.827272e+001	-6.686876e-004
1.441567303260379e-007	2.827272e+001	-6.684152e-004
1.605616570120397e-007	2.827272e+001	-6.678633e-004
1.835358917311756e-007	2.827272e+001	-6.670670e-004
2.174040554893007e-007	2.827273e+001	-6.658266e-004
2.633864165345356e-007	2.827274e+001	-6.639832e-004
3.328851548308540e-007	2.827276e+001	-6.607916e-004
4.408846701775960e-007	2.827280e+001	-6.548262e-004
6.005847527107783e-007	2.827285e+001	-6.436859e-004
8.333426214969095e-007	2.827294e+001	-6.236965e-004
9.569924291237634e-007	2.827297e+001	-6.112671e-004
1.075028856963524e-006	2.827299e+001	-5.983497e-004
1.088280142591422e-006	2.827299e+001	-5.968840e-004
1.114782713847217e-006	2.827298e+001	-5.940035e-004
1.167787856358807e-006	2.827296e+001	-5.885098e-004
1.248825506498185e-006	2.827293e+001	-5.808487e-004
1.338223590099678e-006	2.827289e+001	-5.736743e-004
1.453942455373095e-006	2.827283e+001	-5.661173e-004
1.499759098624449e-006	2.827280e+001	-5.636889e-004
1.512551999337668e-006	2.827280e+001	-5.631156e-004
1.512924029590491e-006	2.827280e+001	-5.630999e-004
1.513668090096136e-006	2.827280e+001	-5.630690e-004
1.514184821114121e-006	2.827280e+001	-5.630475e-004
1.514559535588911e-006	2.827280e+001	-5.630319e-004
1.514828226682418e-006	2.827280e+001	-5.630206e-004
1.515117240161749e-006	2.827280e+001	-5.630086e-004
1.515482323257879e-006	2.827280e+001	-5.629934e-004
1.515915236093365e-006	2.827280e+001	-5.629754e-004
1.516335284644953e-006	2.827280e+001	-5.629578e-004
1.516634425761849e-006	2.827280e+001	-5.629454e-004
1.516912932147362e-006	2.827280e+001	-5.629338e-004
1.517201893336676e-006	2.827280e+001	-5.629217e-004
1.517589488001495e-006	2.827280e+001	-5.629056e-004
1.518025587065845e-006	2.827280e+001	-5.628875e-004
1.518544257398469e-006	2.827280e+001	-5.628660e-004
1.518821507839753e-006	2.827280e+001	-5.628545e-004
1.519140217093823e-006	2.827280e+001	-5.628412e-004
1.519466928763260e-006	2.827280e+001	-5.628276e-004
1.519900196155122e-006	2.827280e+001	-5.628095e-004
1.520389580159981e-006	2.827280e+001	-5.627891e-004
1.520747852573516e-006	2.827280e+001	-5.627742e-004
1.521039348735296e-006	2.827280e+001	-5.627621e-004
1.521346579185934e-006	2.827280e+001	-5.627493e-004
1.521731383024059e-006	2.827280e+001	-5.627333e-004
1.522182248935831e-006	2.827280e+001	-5.627146e-004
1.522653689950485e-006	2.827280e+001	-5.626950e-004
1.522925328379752e-006	2.827280e+001	-5.626837e-004
1.523224662866930e-006	2.827280e+001	-5.626713e-004
1.523555924029085e-006	2.827280e+001	-5.626575e-004
1.523979771003109e-006	2.827280e+001	-5.626399e-004
1.524475315596577e-006	2.827280e+001	-5.626192e-004
1.524844140817219e-006	2.827280e+001	-5.626039e-004
1.525136780244508e-006	2.827280e+001	-5.625918e-004
1.525445412896982e-006	2.827280e+001	-5.625790e-004
1.525828769543139e-006	2.827280e+001	-5.625631e-004
1.526280246121676e-006	2.827280e+001	-5.625443e-004
1.526751655511196e-006	2.827280e+001	-5.625248e-004
1.527023140299405e-006	2.827280e+001	-5.625135e-004
1.527323492295211e-006	2.827280e+001	-5.625010e-004
1.527654157284042e-006	2.827280e+001	-5.624873e-004
1.528078529625566e-006	2.827280e+001	-5.624696e-004
1.528573218377992e-006	2.827280e+001	-5.624490e-004
1.528940797890815e-006	2.827280e+001	-5.624338e-004
1.529232590937982e-006	2.827280e+001	-5.624217e-004
1.529540172121310e-006	2.827280e+001	-5.624089e-004
1.529923086496286e-006	2.827280e+001	-5.623931e-004
1.530373528252770e-006	2.827280e+001	-5.623744e-004
1.530847989887873e-006	2.827280e+001	-5.623547e-004
1.531119427441847e-006	2.827280e+001	-5.623435e-004
1.531423216090392e-006	2.827280e+001	-5.623309e-004
1.531752250563975e-006	2.827280e+001	-5.623172e-004
1.532178380322477e-006	2.827280e+001	-5.622995e-004
1.532670758880233e-006	2.827280e+001	-5.622791e-004
1.533036507255978e-006	2.827280e+001	-5.622639e-004
1.533327067630910e-006	2.827280e+001	-5.622518e-004
1.533633059984366e-006	2.827280e+001	-5.622391e-004
1.534015347410978e-006	2.827280e+001	-5.622234e-004
1.534464253884506e-006	2.827280e+001	-5.622047e-004
1.534943931716885e-006	2.827280e+001	-5.621849e-004
1.535215574765294e-006	2.827280e+001	-5.621737e-004
1.535523713191443e-006	2.827280e+001	-5.621609e-004
1.535850929339395e-006	2.827280e+001	-5.621473e-004
1.536279266493629e-006	2.827280e+001	-5.621295e-004
1.536769081221111e-006	2.827280e+001	-5.621092e-004
1.537132431182389e-006	2.827280e+001	-5.620942e-004
1.537421692879773e-006	2.827280e+001	-5.620822e-004
1.537725985714474e-006	2.827280e+001	-5.620696e-004
1.538107714740904e-006	2.827280e+001	-5.620538e-004
1.538555034043976e-006	2.827280e+001	-5.620353e-004
1.539040031033694e-006	2.827280e+001	-5.620152e-004
1.539311901635174e-006	2.827280e+001	-5.620040e-004
1.539624403079382e-006	2.827280e+001	-5.619910e-004
1.539949871791297e-006	2.827280e+001	-5.619775e-004
1.540380416136305e-006	2.827280e+001	-5.619597e-004
1.540867756949882e-006	2.827280e+001	-5.619395e-004
1.541228642549341e-006	2.827280e+001	-5.619245e-004
1.541516638843177e-006	2.827280e+001	-5.619126e-004
1.541819248423585e-006	2.827280e+001	-5.619001e-004
1.542200458140141e-006	2.827280e+001	-5.618844e-004
1.542646228992055e-006	2.827280e+001	-5.618659e-004
1.543136406075401e-006	2.827280e+001	-5.618457e-004
1.543408505945797e-006	2.827280e+001	-5.618344e-004
1.543725245785078e-006	2.827280e+001	-5.618213e-004
1.544049079140063e-006	2.827280e+001	-5.618079e-004
1.544481761583348e-006	2.827280e+001	-5.617900e-004
1.544966776345178e-006	2.827280e+001	-5.617699e-004
1.545325192882159e-006	2.827280e+001	-5.617551e-004
1.545611973413993e-006	2.827280e+001	-5.617432e-004
1.545912941046386e-006	2.827280e+001	-5.617308e-004
1.546293670679865e-006	2.827280e+001	-5.617151e-004
1.546737950340042e-006	2.827280e+001	-5.616968e-004
1.547233091148700e-006	2.827280e+001	-5.616763e-004
1.547505410557696e-006	2.827280e+001	-5.616650e-004
1.547826241346893e-006	2.827280e+001	-5.616518e-004
1.548148545680137e-006	2.827280e+001	-5.616384e-004
1.548583286902100e-006	2.827280e+001	-5.616205e-004
1.549066116114214e-006	2.827280e+001	-5.616005e-004
1.549422085880263e-006	2.827280e+001	-5.615858e-004
1.549707698599556e-006	2.827280e+001	-5.615740e-004
1.550007065715974e-006	2.827280e+001	-5.615616e-004
1.550387347512666e-006	2.827280e+001	-5.615460e-004
1.550830189254113e-006	2.827280e+001	-5.615277e-004
1.551330096345401e-006	2.827280e+001	-5.615071e-004
1.551602625542841e-006	2.827280e+001	-5.614958e-004
1.551927416285960e-006	2.827280e+001	-5.614824e-004
1.552248284433118e-006	2.827280e+001	-5.614692e-004
1.552685014148272e-006	2.827280e+001	-5.614511e-004
1.553165780459008e-006	2.827280e+001	-5.614312e-004
1.553519327149246e-006	2.827280e+001	-5.614166e-004
1.553803815211770e-006	2.827280e+001	-5.614049e-004
1.554101619156774e-006	2.827280e+001	-5.613926e-004
1.554481481431413e-006	2.827280e+001	-5.613770e-004
1.554922932569762e-006	2.827280e+001	-5.613588e-004
1.555427428981816e-006	2.827280e+001	-5.613380e-004
1.555700158379866e-006	2.827280e+001	-5.613267e-004
1.556028795393625e-006	2.827280e+001	-5.613132e-004
1.556348307801838e-006	2.827280e+001	-5.613000e-004
1.556786965077240e-006	2.827280e+001	-5.612819e-004
1.557265774606154e-006	2.827280e+001	-5.612621e-004
1.557616921809603e-006	2.827280e+001	-5.612476e-004
1.557900323886843e-006	2.827280e+001	-5.612360e-004
1.558196597885362e-006	2.827280e+001	-5.612238e-004
1.558576065564111e-006	2.827280e+001	-5.612082e-004
1.559016167873754e-006	2.827280e+001	-5.611901e-004
1.559525096276879e-006	2.827280e+001	-5.611691e-004
1.559798063576224e-006	2.827280e+001	-5.611579e-004
1.560130410756161e-006	2.827280e+001	-5.611441e-004
1.560448667081665e-006	2.827280e+001	-5.611310e-004
1.560889169768963e-006	2.827280e+001	-5.611128e-004
1.561366155704011e-006	2.827280e+001	-5.610932e-004
1.561714918069290e-006	2.827280e+001	-5.610788e-004
1.561997279978260e-006	2.827280e+001	-5.610672e-004
1.562292071725404e-006	2.827280e+001	-5.610551e-004
1.562671177821380e-006	2.827280e+001	-5.610395e-004
1.563109986109396e-006	2.827280e+001	-5.610214e-004
1.563623106982050e-006	2.827280e+001	-5.610003e-004
1.563896448189566e-006	2.827280e+001	-5.609891e-004
1.564232263199415e-006	2.827280e+001	-5.609753e-004
1.564549422599558e-006	2.827280e+001	-5.609622e-004
1.564991611113897e-006	2.827280e+001	-5.609440e-004
1.565466989280721e-006	2.827280e+001	-5.609244e-004
1.565813392208128e-006	2.827280e+001	-5.609101e-004
1.566094781543129e-006	2.827280e+001	-5.608986e-004
1.566388176669576e-006	2.827280e+001	-5.608865e-004
1.566766970062568e-006	2.827280e+001	-5.608709e-004
1.567204572776380e-006	2.827280e+001	-5.608530e-004
1.567721456683195e-006	2.827280e+001	-5.608317e-004
1.567995098074307e-006	2.827280e+001	-5.608205e-004
1.568334243966817e-006	2.827280e+001	-5.608065e-004
1.568650339123707e-006	2.827280e+001	-5.607935e-004
1.569094150187179e-006	2.827280e+001	-5.607752e-004
1.569567961805262e-006	2.827280e+001	-5.607557e-004
1.569912117722910e-006	2.827280e+001	-5.607416e-004
1.570192554466277e-006	2.827280e+001	-5.607301e-004
1.570484558791629e-006	2.827280e+001	-5.607181e-004
1.570863030042478e-006	2.827280e+001	-5.607025e-004
1.571299433319366e-006	2.827280e+001	-5.606847e-004
1.571823112194952e-006	2.827280e+001	-5.606632e-004
1.572098076227750e-006	2.827280e+001	-5.606519e-004
1.572437686134608e-006	2.827280e+001	-5.606379e-004
1.572754542724061e-006	2.827280e+001	-5.606249e-004
1.573198443322905e-006	2.827280e+001	-5.606066e-004
1.573673364671343e-006	2.827280e+001	-5.605871e-004
1.574014434653402e-006	2.827280e+001	-5.605731e-004
1.574294642114582e-006	2.827280e+001	-5.605616e-004
1.574586504990835e-006	2.827280e+001	-5.605496e-004
1.574965442762740e-006	2.827280e+001	-5.605341e-004
1.575401872509248e-006	2.827280e+001	-5.605162e-004
1.575922989111947e-006	2.827280e+001	-5.604948e-004
1.576197200028014e-006	2.827280e+001	-5.604835e-004
1.576537933125843e-006	2.827280e+001	-5.604696e-004
1.576853859580646e-006	2.827280e+001	-5.604566e-004
1.577298404943505e-006	2.827280e+001	-5.604383e-004
1.577771966239536e-006	2.827280e+001	-5.604189e-004
1.578112559422608e-006	2.827280e+001	-5.604049e-004
1.578391862025797e-006	2.827280e+001	-5.603934e-004
1.578682271411935e-006	2.827280e+001	-5.603816e-004
1.579060528681621e-006	2.827280e+001	-5.603661e-004
1.579495603063758e-006	2.827280e+001	-5.603483e-004
1.580030840189503e-006	2.827280e+001	-5.603263e-004
1.580308637928234e-006	2.827280e+001	-5.603149e-004
1.580644634772476e-006	2.827280e+001	-5.603012e-004
1.580964897052528e-006	2.827280e+001	-5.602880e-004
1.581406719777148e-006	2.827280e+001	-5.602699e-004
1.581886679057064e-006	2.827280e+001	-5.602502e-004
1.582222147724893e-006	2.827280e+001	-5.602365e-004
1.582502634835095e-006	2.827280e+001	-5.602249e-004
1.582795375837575e-006	2.827280e+001	-5.602129e-004
1.583175752565849e-006	2.827280e+001	-5.601974e-004
1.583613295052588e-006	2.827280e+001	-5.601795e-004
1.584119094508251e-006	2.827280e+001	-5.601588e-004
1.584389287848818e-006	2.827280e+001	-5.601477e-004
1.584700473629117e-006	2.827280e+001	-5.601350e-004
1.585018385651936e-006	2.827280e+001	-5.601220e-004
1.585444440696807e-006	2.827280e+001	-5.601045e-004
1.585918480485144e-006	2.827280e+001	-5.600851e-004
1.586290364291466e-006	2.827280e+001	-5.600698e-004
1.586568682287453e-006	2.827280e+001	-5.600585e-004
1.586854195442828e-006	2.827280e+001	-5.600468e-004
1.587224950702369e-006	2.827280e+001	-5.600316e-004
1.587653729647571e-006	2.827280e+001	-5.600141e-004
1.588245803594578e-006	2.827280e+001	-5.599899e-004
1.588536420100595e-006	2.827280e+001	-5.599780e-004
1.588870808786127e-006	2.827280e+001	-5.599643e-004
1.589200522783619e-006	2.827280e+001	-5.599508e-004
1.589640088779438e-006	2.827280e+001	-5.599328e-004
1.590134410312868e-006	2.827280e+001	-5.599125e-004
1.590451226564065e-006	2.827280e+001	-5.598996e-004
1.590734564925598e-006	2.827280e+001	-5.598880e-004
1.591032477700802e-006	2.827280e+001	-5.598758e-004
1.591419674887465e-006	2.827280e+001	-5.598600e-004
1.591863340670126e-006	2.827280e+001	-5.598419e-004
1.592327932115248e-006	2.827280e+001	-5.598229e-004
1.592591629933416e-006	2.827280e+001	-5.598122e-004
1.592927809303425e-006	2.827280e+001	-5.597984e-004
1.593237854533785e-006	2.827280e+001	-5.597858e-004
1.593681079853570e-006	2.827280e+001	-5.597676e-004
1.594146220602863e-006	2.827280e+001	-5.597486e-004
1.594497281607898e-006	2.827280e+001	-5.597342e-004
1.594772037630361e-006	2.827280e+001	-5.597230e-004
1.595053061793299e-006	2.827280e+001	-5.597115e-004
1.595425150261442e-006	2.827280e+001	-5.596963e-004
1.595851102955281e-006	2.827280e+001	-5.596789e-004
1.596439958172347e-006	2.827280e+001	-5.596550e-004
1.596727727376581e-006	2.827280e+001	-5.596432e-004
1.597076116714510e-006	2.827280e+001	-5.596289e-004
1.597398640025330e-006	2.827280e+001	-5.596158e-004
1.597845266366655e-006	2.827280e+001	-5.595975e-004
1.598328546809189e-006	2.827280e+001	-5.595778e-004
1.598644519170134e-006	2.827280e+001	-5.595649e-004
1.598924116066283e-006	2.827280e+001	-5.595534e-004
1.599216626439260e-006	2.827280e+001	-5.595415e-004
1.599600738438007e-006	2.827280e+001	-5.595259e-004
1.600039084918629e-006	2.827280e+001	-5.595080e-004
1.600525305018956e-006	2.827280e+001	-5.594882e-004
1.600790650614988e-006	2.827280e+001	-5.594774e-004
1.601096769013078e-006	2.827280e+001	-5.594649e-004
1.601410926346694e-006	2.827280e+001	-5.594520e-004
1.601833718851276e-006	2.827280e+001	-5.594348e-004
1.602302337648162e-006	2.827280e+001	-5.594157e-004
1.602683191612064e-006	2.827280e+001	-5.594001e-004
1.602958006145092e-006	2.827280e+001	-5.593889e-004
1.603234567247033e-006	2.827280e+001	-5.593777e-004
1.603600692628640e-006	2.827280e+001	-5.593628e-004
1.604021180471361e-006	2.827280e+001	-5.593456e-004
1.604583791188193e-006	2.827280e+001	-5.593227e-004
1.604855115059455e-006	2.827280e+001	-5.593117e-004
1.605145525900365e-006	2.827280e+001	-5.592998e-004
1.605453051939076e-006	2.827280e+001	-5.592873e-004
1.605858326044777e-006	2.827280e+001	-5.592707e-004
1.606315115432837e-006	2.827280e+001	-5.592521e-004
1.606745371951320e-006	2.827280e+001	-5.592346e-004
1.607019518079521e-006	2.827280e+001	-5.592234e-004
1.607279653830577e-006	2.827280e+001	-5.592128e-004
1.607636753893681e-006	2.827280e+001	-5.591983e-004
1.608041226495498e-006	2.827280e+001	-5.591818e-004
1.608573552438194e-006	2.827280e+001	-5.591602e-004
1.608867303413067e-006	2.827280e+001	-5.591483e-004
1.609135732567593e-006	2.827280e+001	-5.591373e-004
1.609411655799045e-006	2.827280e+001	-5.591261e-004
1.609789533547576e-006	2.827280e+001	-5.591107e-004
1.610212843365780e-006	2.827280e+001	-5.590934e-004
1.610677843433347e-006	2.827280e+001	-5.590745e-004
1.610950603019035e-006	2.827280e+001	-5.590634e-004
1.611228421958832e-006	2.827280e+001	-5.590521e-004
1.611518612312823e-006	2.827280e+001	-5.590403e-004
1.611912260975009e-006	2.827280e+001	-5.590243e-004
1.612350497267097e-006	2.827280e+001	-5.590065e-004
1.612809571383880e-006	2.827280e+001	-5.589878e-004
1.613069680421486e-006	2.827280e+001	-5.589772e-004
1.613372036490310e-006	2.827280e+001	-5.589650e-004
1.613682577171983e-006	2.827280e+001	-5.589523e-004
1.614103378327719e-006	2.827280e+001	-5.589352e-004
1.614567311359902e-006	2.827280e+001	-5.589163e-004
1.614955259356249e-006	2.827280e+001	-5.589005e-004
1.615227357791636e-006	2.827280e+001	-5.588895e-004
1.615495625314689e-006	2.827280e+001	-5.588786e-004
1.615858246898530e-006	2.827280e+001	-5.588639e-004
1.616271458931433e-006	2.827280e+001	-5.588471e-004
1.616817370291980e-006	2.827280e+001	-5.588249e-004
1.617080243321777e-006	2.827280e+001	-5.588143e-004
1.617350846152371e-006	2.827280e+001	-5.588033e-004
1.617633916694375e-006	2.827280e+001	-5.587917e-004
1.618021891823470e-006	2.827280e+001	-5.587760e-004
1.618452770911794e-006	2.827280e+001	-5.587584e-004
1.618907659631599e-006	2.827280e+001	-5.587399e-004
1.619156006848281e-006	2.827280e+001	-5.587299e-004
1.619436122288016e-006	2.827280e+001	-5.587185e-004
1.619728718812251e-006	2.827280e+001	-5.587066e-004
1.620131720344627e-006	2.827280e+001	-5.586903e-004
1.620573614878806e-006	2.827280e+001	-5.586724e-004
1.620999999696285e-006	2.827280e+001	-5.586551e-004
1.621255938071347e-006	2.827280e+001	-5.586447e-004
1.621559541567972e-006	2.827280e+001	-5.586324e-004
1.621869176122348e-006	2.827280e+001	-5.586198e-004
1.622292199196516e-006	2.827280e+001	-5.586026e-004
1.622755485607436e-006	2.827280e+001	-5.585838e-004
1.623138185523247e-006	2.827280e+001	-5.585682e-004
1.623408936337620e-006	2.827280e+001	-5.585572e-004
1.623674729840470e-006	2.827280e+001	-5.585465e-004
1.624037176422174e-006	2.827280e+001	-5.585318e-004
1.624448615980758e-006	2.827280e+001	-5.585151e-004
1.624993067776311e-006	2.827280e+001	-5.584931e-004
1.625259563571100e-006	2.827280e+001	-5.584823e-004
1.625529350521316e-006	2.827280e+001	-5.584713e-004
1.625810759731054e-006	2.827280e+001	-5.584599e-004
1.626196915563659e-006	2.827280e+001	-5.584442e-004
1.626626101980086e-006	2.827280e+001	-5.584268e-004
1.627086078343397e-006	2.827280e+001	-5.584082e-004
1.627333789444230e-006	2.827280e+001	-5.583981e-004
1.627611418450976e-006	2.827280e+001	-5.583868e-004
1.627901481865806e-006	2.827280e+001	-5.583751e-004
1.628302192746095e-006	2.827280e+001	-5.583589e-004
1.628741377999659e-006	2.827280e+001	-5.583412e-004
1.629177175562016e-006	2.827280e+001	-5.583235e-004
1.629433120596056e-006	2.827280e+001	-5.583132e-004
1.629732887929924e-006	2.827280e+001	-5.583010e-004
1.630040682842239e-006	2.827280e+001	-5.582885e-004
1.630460217861735e-006	2.827280e+001	-5.582715e-004
1.630920743002226e-006	2.827280e+001	-5.582528e-004
1.631311023691792e-006	2.827280e+001	-5.582370e-004
1.631580188327656e-006	2.827280e+001	-5.582261e-004
1.631839329251421e-006	2.827280e+001	-5.582156e-004
1.632199146578695e-006	2.827280e+001	-5.582010e-004
1.632604884218810e-006	2.827280e+001	-5.581847e-004
1.633141990084914e-006	2.827280e+001	-5.581630e-004
1.633425269029033e-006	2.827280e+001	-5.581515e-004
1.633693022951594e-006	2.827280e+001	-5.581407e-004
1.633968908656952e-006	2.827280e+001	-5.581295e-004
1.634348661204059e-006	2.827280e+001	-5.581141e-004
1.634772249311950e-006	2.827280e+001	-5.580970e-004
